
**** 02/09/14 12:37:15 ************** PSpice Lite (Mar 2000) *****************

 3_2


 ****     CIRCUIT DESCRIPTION


******************************************************************************



.LIB EVAL.LIB
Xa 3 2 7 4 6 UA741
D1 6 9 D1N4002
D2 0 6 D1N4002
Vp 7 0 15
Vn 0 4 15
Ra 3 1 300
Vin 1 0 PULSE(100M -100M 0 0.1F 0.1F 0.1M 0.2M)
Rb 2 9 1K
Rl 9 0 10K
Cl 9 0 0.2U
.TRAN 0.1M 1M
.PROBE
.END

**** 02/09/14 12:37:15 ************** PSpice Lite (Mar 2000) *****************

 3_2


 ****     Diode MODEL PARAMETERS


******************************************************************************




               D1N4002         Xa.dx           
          IS   14.110000E-09  800.000000E-18 
           N    1.984                        
         ISR  100.000000E-12                 
         IKF   94.81                         
          BV  100.1                          
         IBV   10                            
          RS     .03389         1            
          TT    4.761000E-06                 
         CJO   51.170000E-12                 
          VJ     .3905                       
           M     .2762                       


**** 02/09/14 12:37:15 ************** PSpice Lite (Mar 2000) *****************

 3_2


 ****     BJT MODEL PARAMETERS


******************************************************************************




               Xa.qx           
               NPN             
          IS  800.000000E-18 
          BF   93.75         
          NF    1            
          BR    1            
          NR    1            
          CN    2.42         
           D     .87         


**** 02/09/14 12:37:15 ************** PSpice Lite (Mar 2000) *****************

 3_2


 ****     INITIAL TRANSIENT SOLUTION       TEMPERATURE =   27.000 DEG C


******************************************************************************



 NODE   VOLTAGE     NODE   VOLTAGE     NODE   VOLTAGE     NODE   VOLTAGE


(    1)     .1000  (    2)     .1000  (    3)     .1000  (    4)  -15.0000      

(    6)     .4372  (    7)   15.0000  (    9)     .1001  ( Xa.6)-41.43E-06      

( Xa.7)     .4377  ( Xa.8)     .4377  ( Xa.9)    0.0000  (Xa.10)    -.5077      

(Xa.11)   14.9600  (Xa.12)   14.9600  (Xa.13)    -.4938  (Xa.14)    -.4938      

(Xa.53)   14.0000  (Xa.54)  -14.0000  (Xa.90)     .0101  (Xa.91)   40.0000      

(Xa.92)  -40.0000  (Xa.99)    0.0000  




    VOLTAGE SOURCE CURRENTS
    NAME         CURRENT

    Vp          -1.667E-03
    Vn          -1.667E-03
    Vin         -7.977E-08
    Xa.vb       -4.143E-10
    Xa.vc        1.356E-11
    Xa.ve        1.444E-11
    Xa.vlim      1.009E-05
    Xa.vlp      -3.999E-11
    Xa.vln      -4.001E-11

    TOTAL POWER DISSIPATION   5.00E-02  WATTS



          JOB CONCLUDED

          TOTAL JOB TIME             .06
