
**** 05/15/14 18:08:10 ************** PSpice Lite (Mar 2000) *****************

 Chopper


 ****     CIRCUIT DESCRIPTION


******************************************************************************



.lib nom.lib
Vdc 1 0 12
Jfet1 1 2 3 J2N3819
Vs1 2 0 pulse(0 -15 0 0.1n 0.1n 10u 20u)
D1 0 3 D1N4002
L1 3 4 16m
C1 4 0 1000u
R1 4 0 100k
.probe
.tran 10u 200u
.end

**** 05/15/14 18:08:10 ************** PSpice Lite (Mar 2000) *****************

 Chopper


 ****     Diode MODEL PARAMETERS


******************************************************************************




               D1N4002         
          IS   14.110000E-09 
           N    1.984        
         ISR  100.000000E-12 
         IKF   94.81         
          BV  100.1          
         IBV   10            
          RS     .03389      
          TT    4.761000E-06 
         CJO   51.170000E-12 
          VJ     .3905       
           M     .2762       


**** 05/15/14 18:08:10 ************** PSpice Lite (Mar 2000) *****************

 Chopper


 ****     Junction FET MODEL PARAMETERS


******************************************************************************




               J2N3819         
               NJF             
         VTO   -3            
        BETA    1.304000E-03 
      LAMBDA    2.250000E-03 
          IS   33.570000E-15 
         ISR  322.400000E-15 
       ALPHA  311.700000E-06 
          VK  243.6          
          RD    1            
          RS    1            
         CGD    1.600000E-12 
         CGS    2.414000E-12 
           M     .3622       
       VTOTC   -2.500000E-03 
     BETATCE    -.5          
          KF    9.882000E-18 


**** 05/15/14 18:08:10 ************** PSpice Lite (Mar 2000) *****************

 Chopper


 ****     INITIAL TRANSIENT SOLUTION       TEMPERATURE =   27.000 DEG C


******************************************************************************



 NODE   VOLTAGE     NODE   VOLTAGE     NODE   VOLTAGE     NODE   VOLTAGE


(    1)   12.0000  (    2)    0.0000  (    3)    2.8535  (    4)    2.8535  




    VOLTAGE SOURCE CURRENTS
    NAME         CURRENT

    Vdc         -2.855E-05
    Vs1          1.409E-12

    TOTAL POWER DISSIPATION   3.43E-04  WATTS



          JOB CONCLUDED

          TOTAL JOB TIME             .05
