
**** 02/02/14 11:23:14 ************** PSpice Lite (Mar 2000) *****************

 Input Offset Voltage R2 = 100K


 ****     CIRCUIT DESCRIPTION


******************************************************************************




.LIB EVAL.LIB
R1 0 2 100
R2 2 6 100K
V1 7 0 15
V2 0 4 15
X1 0 2 7 4 6 UA741
.END

**** 02/02/14 11:23:14 ************** PSpice Lite (Mar 2000) *****************

 Input Offset Voltage R2 = 100K


 ****     Diode MODEL PARAMETERS


******************************************************************************




               X1.dx           
          IS  800.000000E-18 
          RS    1            


**** 02/02/14 11:23:14 ************** PSpice Lite (Mar 2000) *****************

 Input Offset Voltage R2 = 100K


 ****     BJT MODEL PARAMETERS


******************************************************************************




               X1.qx           
               NPN             
          IS  800.000000E-18 
          BF   93.75         
          NF    1            
          BR    1            
          NR    1            
          CN    2.42         
           D     .87         


**** 02/02/14 11:23:14 ************** PSpice Lite (Mar 2000) *****************

 Input Offset Voltage R2 = 100K


 ****     SMALL SIGNAL BIAS SOLUTION       TEMPERATURE =   27.000 DEG C


******************************************************************************



 NODE   VOLTAGE     NODE   VOLTAGE     NODE   VOLTAGE     NODE   VOLTAGE


(    2) 19.12E-06  (    4)  -15.0000  (    6)     .0271  (    7)   15.0000      

( X1.6)-2.564E-06  ( X1.7)     .0271  ( X1.8)     .0271  ( X1.9)    0.0000      

(X1.10)    -.6077  (X1.11)   14.9600  (X1.12)   14.9600  (X1.13)    -.5938      

(X1.14)    -.5938  (X1.53)   14.0000  (X1.54)  -14.0000  (X1.90) 270.9E-06      

(X1.91)   40.0000  (X1.92)  -40.0000  (X1.99)    0.0000  




    VOLTAGE SOURCE CURRENTS
    NAME         CURRENT

    V1          -1.667E-03
    V2          -1.667E-03
    X1.vb       -2.564E-11
    X1.vc        1.397E-11
    X1.ve        1.403E-11
    X1.vlim      2.709E-07
    X1.vlp      -4.000E-11
    X1.vln      -4.000E-11

    TOTAL POWER DISSIPATION   5.00E-02  WATTS



          JOB CONCLUDED

          TOTAL JOB TIME            0.00
