
**** 02/02/14 22:25:13 ************** PSpice Lite (Mar 2000) *****************

 NON INVERTING AMPLIFIER


 ****     CIRCUIT DESCRIPTION


******************************************************************************




.LIB EVAL.LIB
Xa 3 2 7 4 6 UA741
V1 7 0 DC 15
V2 0 4 DC 15
Ra 2 0 1K
Rf 2 6 15K
Vs 3 0 SIN(0 100M 1K)
Rl 6 0 10k
.TRAN 500U 5M
.PROBE
.END

**** 02/02/14 22:25:13 ************** PSpice Lite (Mar 2000) *****************

 NON INVERTING AMPLIFIER


 ****     Diode MODEL PARAMETERS


******************************************************************************




               Xa.dx           
          IS  800.000000E-18 
          RS    1            


**** 02/02/14 22:25:13 ************** PSpice Lite (Mar 2000) *****************

 NON INVERTING AMPLIFIER


 ****     BJT MODEL PARAMETERS


******************************************************************************




               Xa.qx           
               NPN             
          IS  800.000000E-18 
          BF   93.75         
          NF    1            
          BR    1            
          NR    1            
          CN    2.42         
           D     .87         


**** 02/02/14 22:25:13 ************** PSpice Lite (Mar 2000) *****************

 NON INVERTING AMPLIFIER


 ****     INITIAL TRANSIENT SOLUTION       TEMPERATURE =   27.000 DEG C


******************************************************************************



 NODE   VOLTAGE     NODE   VOLTAGE     NODE   VOLTAGE     NODE   VOLTAGE


(    2) 20.73E-06  (    3)    0.0000  (    4)  -15.0000  (    6)     .0015      

(    7)   15.0000  ( Xa.6) 27.83E-06  ( Xa.7)    -.0961  ( Xa.8)    -.0961      

( Xa.9)    0.0000  (Xa.10)    -.6077  (Xa.11)   14.9600  (Xa.12)   14.9600      

(Xa.13)    -.5938  (Xa.14)    -.5938  (Xa.53)   14.0000  (Xa.54)  -14.0000      

(Xa.90)   -1.9529  (Xa.91)   40.0000  (Xa.92)  -40.0000  (Xa.99)    0.0000  




    VOLTAGE SOURCE CURRENTS
    NAME         CURRENT

    V1          -1.667E-03
    V2          -1.667E-03
    Vs          -7.972E-08
    Xa.vb        2.783E-10
    Xa.vc        1.400E-11
    Xa.ve        1.400E-11
    Xa.vlim     -1.953E-03
    Xa.vlp      -4.195E-11
    Xa.vln      -3.805E-11

    TOTAL POWER DISSIPATION   5.00E-02  WATTS



          JOB CONCLUDED

          TOTAL JOB TIME             .03
