
**** 02/02/14 22:28:49 ************** PSpice Lite (Mar 2000) *****************

 VOLTAGE FOLLOWER


 ****     CIRCUIT DESCRIPTION


******************************************************************************




.LIB EVAL.LIB
Xa 3 6 7 4 6 UA741
V1 0 4 15
V2 7 0 15
RL 6 0 10K
Vs 3 0 AC 100M 90
.AC LIN 100 100 1MEG
.PROBE
.END

**** 02/02/14 22:28:49 ************** PSpice Lite (Mar 2000) *****************

 VOLTAGE FOLLOWER


 ****     Diode MODEL PARAMETERS


******************************************************************************




               Xa.dx           
          IS  800.000000E-18 
          RS    1            


**** 02/02/14 22:28:49 ************** PSpice Lite (Mar 2000) *****************

 VOLTAGE FOLLOWER


 ****     BJT MODEL PARAMETERS


******************************************************************************




               Xa.qx           
               NPN             
          IS  800.000000E-18 
          BF   93.75         
          NF    1            
          BR    1            
          NR    1            
          CN    2.42         
           D     .87         


**** 02/02/14 22:28:49 ************** PSpice Lite (Mar 2000) *****************

 VOLTAGE FOLLOWER


 ****     SMALL SIGNAL BIAS SOLUTION       TEMPERATURE =   27.000 DEG C


******************************************************************************



 NODE   VOLTAGE     NODE   VOLTAGE     NODE   VOLTAGE     NODE   VOLTAGE


(    3)    0.0000  (    4)  -15.0000  (    6) 19.25E-06  (    7)   15.0000      

( Xa.6)-3.290E-09  ( Xa.7) 23.34E-06  ( Xa.8) 23.34E-06  ( Xa.9)    0.0000      

(Xa.10)    -.6077  (Xa.11)   14.9600  (Xa.12)   14.9600  (Xa.13)    -.5938      

(Xa.14)    -.5938  (Xa.53)   14.0000  (Xa.54)  -14.0000  (Xa.90) 81.69E-06      

(Xa.91)   40.0000  (Xa.92)  -40.0000  (Xa.99)    0.0000  




    VOLTAGE SOURCE CURRENTS
    NAME         CURRENT

    V1          -1.667E-03
    V2          -1.667E-03
    Vs          -7.972E-08
    Xa.vb       -3.290E-14
    Xa.vc        1.400E-11
    Xa.ve        1.400E-11
    Xa.vlim      8.169E-08
    Xa.vlp      -4.000E-11
    Xa.vln      -4.000E-11

    TOTAL POWER DISSIPATION   5.00E-02  WATTS



          JOB CONCLUDED

          TOTAL JOB TIME             .02
