
**** 03/03/14 09:52:55 ************** PSpice Lite (Mar 2000) *****************

 Differentiator


 ****     CIRCUIT DESCRIPTION


******************************************************************************




.LIB EVAL.LIB
Xa 0 2 7 4 6 UA741
Ca 3 2 0.05U
Rs 3 1 1K
Rb 2 6 10K
Rl 6 0 10K
Vpulse 1 0 PULSE(0.1 -0.1 0 0.1M 0.1M 0.1f 0.2M)
V1 7 0 DC 15
V2 0 4 DC 15
.TRAN 500U 0.5M 0s 500U 
.PROBE
.END

**** 03/03/14 09:52:55 ************** PSpice Lite (Mar 2000) *****************

 Differentiator


 ****     Diode MODEL PARAMETERS


******************************************************************************




               Xa.dx           
          IS  800.000000E-18 
          RS    1            


**** 03/03/14 09:52:55 ************** PSpice Lite (Mar 2000) *****************

 Differentiator


 ****     BJT MODEL PARAMETERS


******************************************************************************




               Xa.qx           
               NPN             
          IS  800.000000E-18 
          BF   93.75         
          NF    1            
          BR    1            
          NR    1            
          CN    2.42         
           D     .87         


**** 03/03/14 09:52:55 ************** PSpice Lite (Mar 2000) *****************

 Differentiator


 ****     INITIAL TRANSIENT SOLUTION       TEMPERATURE =   27.000 DEG C


******************************************************************************



 NODE   VOLTAGE     NODE   VOLTAGE     NODE   VOLTAGE     NODE   VOLTAGE


(    1)     .1000  (    2) 20.73E-06  (    3)     .1000  (    4)  -15.0000      

(    6) 818.4E-06  (    7)   15.0000  ( Xa.6) 27.90E-06  ( Xa.7)    -.0968      

( Xa.8)    -.0968  ( Xa.9)    0.0000  (Xa.10)    -.6077  (Xa.11)   14.9600      

(Xa.12)   14.9600  (Xa.13)    -.5938  (Xa.14)    -.5938  (Xa.53)   14.0000      

(Xa.54)  -14.0000  (Xa.90)   -1.9530  (Xa.91)   40.0000  (Xa.92)  -40.0000      

(Xa.99)    0.0000  




    VOLTAGE SOURCE CURRENTS
    NAME         CURRENT

    Vpulse       0.000E+00
    V1          -1.667E-03
    V2          -1.667E-03
    Xa.vb        2.790E-10
    Xa.vc        1.400E-11
    Xa.ve        1.400E-11
    Xa.vlim     -1.953E-03
    Xa.vlp      -4.195E-11
    Xa.vln      -3.805E-11

    TOTAL POWER DISSIPATION   5.00E-02  WATTS



          JOB CONCLUDED

          TOTAL JOB TIME             .19
