
**** 02/16/14 23:07:19 ************** PSpice Lite (Mar 2000) *****************

 *PFA


 ****     CIRCUIT DESCRIPTION


******************************************************************************



.LIB EVAL.LIB

Xa 3 2 7 4 6 UA741
Vp 7 0 15
Vn 0 4 15
Vin 3 0 1
Rf 6 2 100K
*Node 1 Drain Node 8 Gate Node 9 Source
Jfet1 1 8 0 J2N3819
Jfet2 10 11 0 J2N3819
Jfet3 13 14 0 J2N3819
Rs1 2 1 100k
Rs2 2 10 50K
Rs3 2 13 25K
V1 8 0 pwl(1ms 0 2ms -15 3ms -15 4ms -15 5ms 0)
V2 11 0 pwl(1ms -15 2ms 0 3ms -15 4ms -15 5ms 0) 
V3 14 0 pwl(1ms -15 2ms -15 3ms 0 4ms -15 5ms 0)
.TRAN 100u 6m
.PROBE
.END

**** 02/16/14 23:07:19 ************** PSpice Lite (Mar 2000) *****************

 *PFA


 ****     Diode MODEL PARAMETERS


******************************************************************************




               Xa.dx           
          IS  800.000000E-18 
          RS    1            


**** 02/16/14 23:07:19 ************** PSpice Lite (Mar 2000) *****************

 *PFA


 ****     BJT MODEL PARAMETERS


******************************************************************************




               Xa.qx           
               NPN             
          IS  800.000000E-18 
          BF   93.75         
          NF    1            
          BR    1            
          NR    1            
          CN    2.42         
           D     .87         


**** 02/16/14 23:07:19 ************** PSpice Lite (Mar 2000) *****************

 *PFA


 ****     Junction FET MODEL PARAMETERS


******************************************************************************




               J2N3819         
               NJF             
         VTO   -3            
        BETA    1.304000E-03 
      LAMBDA    2.250000E-03 
          IS   33.570000E-15 
         ISR  322.400000E-15 
       ALPHA  311.700000E-06 
          VK  243.6          
          RD    1            
          RS    1            
         CGD    1.600000E-12 
         CGS    2.414000E-12 
           M     .3622       
       VTOTC   -2.500000E-03 
     BETATCE    -.5          
          KF    9.882000E-18 


**** 02/16/14 23:07:19 ************** PSpice Lite (Mar 2000) *****************

 *PFA


 ****     INITIAL TRANSIENT SOLUTION       TEMPERATURE =   27.000 DEG C


******************************************************************************



 NODE   VOLTAGE     NODE   VOLTAGE     NODE   VOLTAGE     NODE   VOLTAGE


(    1)     .0013  (    2)    1.0000  (    3)    1.0000  (    4)  -15.0000      

(    6)    2.0067  (    7)   15.0000  (    8)    0.0000  (   10)    1.0000      

(   11)  -15.0000  (   13)    1.0000  (   14)  -15.0000  ( Xa.6)-189.7E-06      

( Xa.7)    2.0072  ( Xa.8)    2.0072  ( Xa.9)    0.0000  (Xa.10)     .3921      

(Xa.11)   14.9600  (Xa.12)   14.9600  (Xa.13)     .4061  (Xa.14)     .4061      

(Xa.53)   14.0000  (Xa.54)  -14.0000  (Xa.90)     .0101  (Xa.91)   40.0000      

(Xa.92)  -40.0000  (Xa.99)    0.0000  




    VOLTAGE SOURCE CURRENTS
    NAME         CURRENT

    Vp          -1.667E-03
    Vn          -1.667E-03
    Vin         -8.017E-08
    V1           9.636E-15
    V2           1.847E-12
    V3           1.847E-12
    Xa.vb       -1.897E-09
    Xa.vc        1.199E-11
    Xa.ve        1.601E-11
    Xa.vlim      1.007E-05
    Xa.vlp      -3.999E-11
    Xa.vln      -4.001E-11

    TOTAL POWER DISSIPATION   5.00E-02  WATTS



          JOB CONCLUDED

          TOTAL JOB TIME             .02
