
**** 02/16/14 22:22:38 ************** PSpice Lite (Mar 2000) *****************

 *PFA


 ****     CIRCUIT DESCRIPTION


******************************************************************************



.LIB EVAL.LIB

Xa 3 2 7 4 6 UA741
Vp 7 0 15
Vn 0 4 15
Vin 3 0 1
Rf 6 2 4K
*Node 1 Drain Node 8 Gate Node 9 Source
Jfet1 1 8 0 J2N3819
Jfet2 10 11 0 J2N3819
Jfet3 13 14 0 J2N3819
Jfet4 15 16 0 J2N3819
Rs1 2 1 4k
Rs2 2 10 2K
Rs3 2 13 1K
Rs4 2 15 500
V1 8 0 -15
V2 11 0 -15
V3 14 0 -15
v4 16 0 0
.END

**** 02/16/14 22:22:38 ************** PSpice Lite (Mar 2000) *****************

 *PFA


 ****     Diode MODEL PARAMETERS


******************************************************************************




               Xa.dx           
          IS  800.000000E-18 
          RS    1            


**** 02/16/14 22:22:38 ************** PSpice Lite (Mar 2000) *****************

 *PFA


 ****     BJT MODEL PARAMETERS


******************************************************************************




               Xa.qx           
               NPN             
          IS  800.000000E-18 
          BF   93.75         
          NF    1            
          BR    1            
          NR    1            
          CN    2.42         
           D     .87         


**** 02/16/14 22:22:38 ************** PSpice Lite (Mar 2000) *****************

 *PFA


 ****     Junction FET MODEL PARAMETERS


******************************************************************************




               J2N3819         
               NJF             
         VTO   -3            
        BETA    1.304000E-03 
      LAMBDA    2.250000E-03 
          IS   33.570000E-15 
         ISR  322.400000E-15 
       ALPHA  311.700000E-06 
          VK  243.6          
          RD    1            
          RS    1            
         CGD    1.600000E-12 
         CGS    2.414000E-12 
           M     .3622       
       VTOTC   -2.500000E-03 
     BETATCE    -.5          
          KF    9.882000E-18 


**** 02/16/14 22:22:38 ************** PSpice Lite (Mar 2000) *****************

 *PFA


 ****     SMALL SIGNAL BIAS SOLUTION       TEMPERATURE =   27.000 DEG C


******************************************************************************



 NODE   VOLTAGE     NODE   VOLTAGE     NODE   VOLTAGE     NODE   VOLTAGE


(    1)    1.0000  (    2)    1.0000  (    3)    1.0000  (    4)  -15.0000      

(    6)    7.3048  (    7)   15.0000  (    8)  -15.0000  (   10)    1.0000      

(   11)  -15.0000  (   13)    1.0000  (   14)  -15.0000  (   15)     .2119      

(   16)    0.0000  ( Xa.6)-712.4E-06  ( Xa.7)    7.3837  ( Xa.8)    7.3837      

( Xa.9)    0.0000  (Xa.10)     .3921  (Xa.11)   14.9600  (Xa.12)   14.9600      

(Xa.13)     .4060  (Xa.14)     .4061  (Xa.53)   14.0000  (Xa.54)  -14.0000      

(Xa.90)    1.5762  (Xa.91)   40.0000  (Xa.92)  -40.0000  (Xa.99)    0.0000  




    VOLTAGE SOURCE CURRENTS
    NAME         CURRENT

    Vp          -1.667E-03
    Vn          -1.667E-03
    Vin         -8.019E-08
    V1           1.847E-12
    V2           1.847E-12
    V3           1.847E-12
    v4           3.850E-13
    Xa.vb       -7.124E-09
    Xa.vc        6.696E-12
    Xa.ve        2.131E-11
    Xa.vlim      1.576E-03
    Xa.vlp      -3.842E-11
    Xa.vln      -4.158E-11

    TOTAL POWER DISSIPATION   5.00E-02  WATTS



          JOB CONCLUDED

          TOTAL JOB TIME             .05
