
**** 02/23/14 19:47:35 ************** PSpice Lite (Mar 2000) *****************

 Voltage Level Detector


 ****     CIRCUIT DESCRIPTION


******************************************************************************



.LIB EVAL.LIB
Xa 3 2 7 4 6 UA741
Vp 7 0 15
Vn 0 4 15
Rl 6 0 10K
V1 1 0 3V
R1 1 2 1K
R2 3 5 1K
Vin 5 0 SIN(0 5 1K)
D1 2 3 D1N4002
D2 3 2 D1N4002
.TRAN 100U 5M
.PROBE(V(6) V(5) V(1))
.END

**** 02/23/14 19:47:35 ************** PSpice Lite (Mar 2000) *****************

 Voltage Level Detector


 ****     Diode MODEL PARAMETERS


******************************************************************************




               D1N4002         Xa.dx           
          IS   14.110000E-09  800.000000E-18 
           N    1.984                        
         ISR  100.000000E-12                 
         IKF   94.81                         
          BV  100.1                          
         IBV   10                            
          RS     .03389         1            
          TT    4.761000E-06                 
         CJO   51.170000E-12                 
          VJ     .3905                       
           M     .2762                       


**** 02/23/14 19:47:35 ************** PSpice Lite (Mar 2000) *****************

 Voltage Level Detector


 ****     BJT MODEL PARAMETERS


******************************************************************************




               Xa.qx           
               NPN             
          IS  800.000000E-18 
          BF   93.75         
          NF    1            
          BR    1            
          NR    1            
          CN    2.42         
           D     .87         


**** 02/23/14 19:47:35 ************** PSpice Lite (Mar 2000) *****************

 Voltage Level Detector


 ****     INITIAL TRANSIENT SOLUTION       TEMPERATURE =   27.000 DEG C


******************************************************************************



 NODE   VOLTAGE     NODE   VOLTAGE     NODE   VOLTAGE     NODE   VOLTAGE


(    1)    3.0000  (    2)    1.7912  (    3)    1.2086  (    4)  -15.0000      

(    5)    0.0000  (    6)  -14.6130  (    7)   15.0000  ( Xa.6)    1.5093      

( Xa.7)  -14.6870  ( Xa.8)  -14.6870  ( Xa.9)    0.0000  (Xa.10)    1.1513      

(Xa.11)   14.9200  (Xa.12)   15.0000  (Xa.13)    1.1793  (Xa.14)    1.1513      

(Xa.53)   14.0000  (Xa.54)  -14.0000  (Xa.90)   -1.4771  (Xa.91)   40.0000      

(Xa.92)  -40.0000  (Xa.99)    0.0000  




    VOLTAGE SOURCE CURRENTS
    NAME         CURRENT

    Vp          -1.667E-03
    Vn          -1.651E-03
    V1          -1.209E-03
    Vin          1.209E-03
    Xa.vb        1.509E-05
    Xa.vc        2.862E-11
    Xa.ve       -1.600E-05
    Xa.vlim     -1.477E-03
    Xa.vlp      -4.148E-11
    Xa.vln      -3.853E-11

    TOTAL POWER DISSIPATION   5.34E-02  WATTS



          JOB CONCLUDED

          TOTAL JOB TIME             .08
