
**** 02/23/14 20:29:40 ************** PSpice Lite (Mar 2000) *****************

 Schmitt Trigger Circuit


 ****     CIRCUIT DESCRIPTION


******************************************************************************



.LIB EVAL.LIB
Xa 3 2 7 4 6 UA741
R1 6 3 150K
R2 3 5 39K
Vref 5 0 2
Ron 2 1 31K
Vin 1 0 AC 5 SIN(0 5 1K)
Rl 6 0 10K
Vp 7 0 15
Vn 0 4 15
.TRAN 100u 5M
.PROBE(V(6) V(3) V(1) V(5))
.END

**** 02/23/14 20:29:40 ************** PSpice Lite (Mar 2000) *****************

 Schmitt Trigger Circuit


 ****     Diode MODEL PARAMETERS


******************************************************************************




               Xa.dx           
          IS  800.000000E-18 
          RS    1            


**** 02/23/14 20:29:40 ************** PSpice Lite (Mar 2000) *****************

 Schmitt Trigger Circuit


 ****     BJT MODEL PARAMETERS


******************************************************************************




               Xa.qx           
               NPN             
          IS  800.000000E-18 
          BF   93.75         
          NF    1            
          BR    1            
          NR    1            
          CN    2.42         
           D     .87         


**** 02/23/14 20:29:40 ************** PSpice Lite (Mar 2000) *****************

 Schmitt Trigger Circuit


 ****     INITIAL TRANSIENT SOLUTION       TEMPERATURE =   27.000 DEG C


******************************************************************************



 NODE   VOLTAGE     NODE   VOLTAGE     NODE   VOLTAGE     NODE   VOLTAGE


(    1)    0.0000  (    2)    -.0025  (    3)    -.0025  (    4)  -15.0000      

(    5)    2.0000  (    6)   -7.6926  (    7)   15.0000  ( Xa.6) 766.2E-06      

( Xa.7)   -7.8313  ( Xa.8)   -7.8313  ( Xa.9)    0.0000  (Xa.10)    -.6102      

(Xa.11)   14.9600  (Xa.12)   14.9600  (Xa.13)    -.5963  (Xa.14)    -.5963      

(Xa.53)   14.0000  (Xa.54)  -14.0000  (Xa.90)   -2.7737  (Xa.91)   40.0000      

(Xa.92)  -40.0000  (Xa.99)    0.0000  




    VOLTAGE SOURCE CURRENTS
    NAME         CURRENT

    Vref        -5.135E-05
    Vin         -7.980E-08
    Vp          -1.667E-03
    Vn          -1.667E-03
    Xa.vb        7.662E-09
    Xa.vc        2.169E-11
    Xa.ve        6.308E-12
    Xa.vlim     -2.774E-03
    Xa.vlp      -4.277E-11
    Xa.vln      -3.723E-11

    TOTAL POWER DISSIPATION   5.01E-02  WATTS



          JOB CONCLUDED

          TOTAL JOB TIME             .03
