
**** 06/18/15 21:27:47 ************** PSpice Lite (Mar 2000) *****************

 Zero Level Detector


 ****     CIRCUIT DESCRIPTION


******************************************************************************



.LIB EVAL.LIB
Xa 0 2 7 4 6 UA741
Vp 7 0 15
Vn 0 4 15
Rl 6 0 10K
R2 2 5 1K
Vin 5 0 SIN(0 5 1K)
D1 2 3 D1N4002
D2 3 2 D1N4002
.TRAN 100U 5M
.PROBE(V(6) V(5))
.END

**** 06/18/15 21:27:47 ************** PSpice Lite (Mar 2000) *****************

 Zero Level Detector


 ****     Diode MODEL PARAMETERS


******************************************************************************




               D1N4002         Xa.dx           
          IS   14.110000E-09  800.000000E-18 
           N    1.984                        
         ISR  100.000000E-12                 
         IKF   94.81                         
          BV  100.1                          
         IBV   10                            
          RS     .03389         1            
          TT    4.761000E-06                 
         CJO   51.170000E-12                 
          VJ     .3905                       
           M     .2762                       


**** 06/18/15 21:27:47 ************** PSpice Lite (Mar 2000) *****************

 Zero Level Detector


 ****     BJT MODEL PARAMETERS


******************************************************************************




               Xa.qx           
               NPN             
          IS  800.000000E-18 
          BF   93.75         
          NF    1            
          BR    1            
          NR    1            
          CN    2.42         
           D     .87         


**** 06/18/15 21:27:47 ************** PSpice Lite (Mar 2000) *****************

 Zero Level Detector


 ****     INITIAL TRANSIENT SOLUTION       TEMPERATURE =   27.000 DEG C


******************************************************************************



 NODE   VOLTAGE     NODE   VOLTAGE     NODE   VOLTAGE     NODE   VOLTAGE


(    2)-79.66E-06  (    3)-79.66E-06  (    4)  -15.0000  (    5)    0.0000      

(    6)   14.4050  (    7)   15.0000  ( Xa.6)    -.0019  ( Xa.7)   14.4770      

( Xa.8)   14.4770  ( Xa.9)    0.0000  (Xa.10)    -.6077  (Xa.11)   14.9600      

(Xa.12)   14.9600  (Xa.13)    -.5939  (Xa.14)    -.5938  (Xa.53)   14.0000      

(Xa.54)  -14.0000  (Xa.90)    1.4406  (Xa.91)   40.0000  (Xa.92)  -40.0000      

(Xa.99)    0.0000  




    VOLTAGE SOURCE CURRENTS
    NAME         CURRENT

    Vp          -1.667E-03
    Vn          -1.667E-03
    Vin         -7.966E-08
    Xa.vb       -1.861E-08
    Xa.vc       -5.094E-09
    Xa.ve        2.841E-11
    Xa.vlim      1.441E-03
    Xa.vlp      -3.856E-11
    Xa.vln      -4.144E-11

    TOTAL POWER DISSIPATION   5.00E-02  WATTS



          JOB CONCLUDED

          TOTAL JOB TIME             .08
