
**** 03/09/14 23:16:19 ************** PSpice Lite (Mar 2000) *****************

 RC Phase Shift


 ****     CIRCUIT DESCRIPTION


******************************************************************************



.LIB EVAL.LIB
Xa 0 2 7 4 6 UA741
Vp 7 0 15
Vn 0 4 15
Rf 2 6 31K
Ra 2 1 1K
Ca 1 5 .01U
Rb 5 0 1K
Cb 5 9 .01U
Rc 9 0 1K
Cc 9 6 .01U
.TRAN 100U .5M
.PROBE
.END

**** 03/09/14 23:16:19 ************** PSpice Lite (Mar 2000) *****************

 RC Phase Shift


 ****     Diode MODEL PARAMETERS


******************************************************************************




               Xa.dx           
          IS  800.000000E-18 
          RS    1            


**** 03/09/14 23:16:19 ************** PSpice Lite (Mar 2000) *****************

 RC Phase Shift


 ****     BJT MODEL PARAMETERS


******************************************************************************




               Xa.qx           
               NPN             
          IS  800.000000E-18 
          BF   93.75         
          NF    1            
          BR    1            
          NR    1            
          CN    2.42         
           D     .87         


**** 03/09/14 23:16:19 ************** PSpice Lite (Mar 2000) *****************

 RC Phase Shift


 ****     INITIAL TRANSIENT SOLUTION       TEMPERATURE =   27.000 DEG C


******************************************************************************



 NODE   VOLTAGE     NODE   VOLTAGE     NODE   VOLTAGE     NODE   VOLTAGE


(    1) 19.24E-06  (    2) 19.24E-06  (    4)  -15.0000  (    5)    0.0000      

(    6)     .0025  (    7)   15.0000  (    9)    0.0000  ( Xa.6)-236.8E-09      

( Xa.7)     .0025  ( Xa.8)     .0025  ( Xa.9)    0.0000  (Xa.10)    -.6077      

(Xa.11)   14.9600  (Xa.12)   14.9600  (Xa.13)    -.5938  (Xa.14)    -.5938      

(Xa.53)   14.0000  (Xa.54)  -14.0000  (Xa.90) 79.76E-06  (Xa.91)   40.0000      

(Xa.92)  -40.0000  (Xa.99)    0.0000  




    VOLTAGE SOURCE CURRENTS
    NAME         CURRENT

    Vp          -1.667E-03
    Vn          -1.667E-03
    Xa.vb       -2.368E-12
    Xa.vc        1.400E-11
    Xa.ve        1.400E-11
    Xa.vlim      7.976E-08
    Xa.vlp      -4.000E-11
    Xa.vln      -4.000E-11

    TOTAL POWER DISSIPATION   5.00E-02  WATTS



          JOB CONCLUDED

          TOTAL JOB TIME             .02
