
**** 03/09/14 23:12:51 ************** PSpice Lite (Mar 2000) *****************

 Wein Bridge Oscillator


 ****     CIRCUIT DESCRIPTION


******************************************************************************



.LIB EVAL.LIB
Xa 3 2 7 4 6 UA741
Vp 7 0 15
Vn 0 4 15
Ri 2 0 1k
Rf 2 6 2.1K
C1 3 0 0.01U
R1 3 0 1K
C2 3 1 .01U
R2 1 6 1K
.TRAN 100U .2M
.PROBE
.END

**** 03/09/14 23:12:51 ************** PSpice Lite (Mar 2000) *****************

 Wein Bridge Oscillator


 ****     Diode MODEL PARAMETERS


******************************************************************************




               Xa.dx           
          IS  800.000000E-18 
          RS    1            


**** 03/09/14 23:12:51 ************** PSpice Lite (Mar 2000) *****************

 Wein Bridge Oscillator


 ****     BJT MODEL PARAMETERS


******************************************************************************




               Xa.qx           
               NPN             
          IS  800.000000E-18 
          BF   93.75         
          NF    1            
          BR    1            
          NR    1            
          CN    2.42         
           D     .87         


**** 03/09/14 23:12:51 ************** PSpice Lite (Mar 2000) *****************

 Wein Bridge Oscillator


 ****     INITIAL TRANSIENT SOLUTION       TEMPERATURE =   27.000 DEG C


******************************************************************************



 NODE   VOLTAGE     NODE   VOLTAGE     NODE   VOLTAGE     NODE   VOLTAGE


(    1)-19.95E-06  (    2)-60.47E-06  (    3)-79.72E-06  (    4)  -15.0000      

(    6)-19.95E-06  (    7)   15.0000  ( Xa.6) 1.321E-09  ( Xa.7)-18.99E-06      

( Xa.8)-18.99E-06  ( Xa.9)    0.0000  (Xa.10)    -.6077  (Xa.11)   14.9600      

(Xa.12)   14.9600  (Xa.13)    -.5939  (Xa.14)    -.5939  (Xa.53)   14.0000      

(Xa.54)  -14.0000  (Xa.90) 19.69E-06  (Xa.91)   40.0000  (Xa.92)  -40.0000      

(Xa.99)    0.0000  




    VOLTAGE SOURCE CURRENTS
    NAME         CURRENT

    Vp          -1.667E-03
    Vn          -1.667E-03
    Xa.vb        1.321E-14
    Xa.vc        1.400E-11
    Xa.ve        1.400E-11
    Xa.vlim      1.969E-08
    Xa.vlp      -4.000E-11
    Xa.vln      -4.000E-11

    TOTAL POWER DISSIPATION   5.00E-02  WATTS



          JOB CONCLUDED

          TOTAL JOB TIME             .02
