
**** 03/18/14 00:29:53 ************** PSpice Lite (Mar 2000) *****************

 Voltage Controlled Oscillator


 ****     CIRCUIT DESCRIPTION


******************************************************************************



.LIB NOM.LIB
.PARAM Vcc 5V
Xa 0 6 3 8 5 6 7 8 555D
Ra 8 7 48K
Rb 7 6 48K
C2 6 0 .01U
C1 5 0 .01U
Vc 8 0 5
Rl 3 0 10K
Vcc1 5 0 DC {Vcc}
.STEP PARAM Vcc 5 5 1
.TRAN 1u 1m
.PROBE
.END


**** Generated AtoD and DtoA Interfaces ****

*
* Analog/Digital interface for node 8
*
* Moving Xa.u1:CLRBAR from analog node 8 to new digital node 8$AtoD
X$8_AtoD1
+ 8
+ 8$AtoD
+ 8
+ 0
+ atod_555
+       PARAMS: CAPACITANCE=   0     
*
* Analog/Digital interface for node 3
*
* Moving Xa.u1:Q1 from analog node 3 to new digital node 3$DtoA
X$3_DtoA1
+ 3$DtoA
+ 3
+ 8
+ 0
+ dtoa_555
+       PARAMS: DRVH=  96.4   DRVL= 104    CAPACITANCE=   0     
*
* Analog/Digital interface for node Xa.qb
*
* Moving Xa.u1:QBAR1 from analog node Xa.qb to new digital node Xa.qb$DtoA
X$Xa.qb_DtoA1
+ Xa.qb$DtoA
+ Xa.qb
+ 8
+ 0
+ dtoa_555
+       PARAMS: DRVH=  96.4   DRVL= 104    CAPACITANCE=   0     
*
* Analog/Digital interface power supply subcircuits
*

X$DIGIFPWR 0 DIGIFPWR

**** 03/18/14 00:29:53 ************** PSpice Lite (Mar 2000) *****************

 Voltage Controlled Oscillator


 ****     MOSFET MODEL PARAMETERS


******************************************************************************




               Xa.nchan        
               NMOS            
       LEVEL    1            
           L  100.000000E-06 
           W  100.000000E-06 
         VTO    0            
          KP   20.000000E-06 
       GAMMA    0            
         PHI     .6          
      LAMBDA    0            
          IS   10.000000E-15 
          JS    0            
          PB     .8          
        PBSW     .8          
          CJ    0            
        CJSW    0            
        CGSO    1.000000E-12 
        CGDO    1.000000E-12 
        CGBO    1.000000E-12 
         TOX    0            
          XJ    0            
       UCRIT   10.000000E+03 
      DIOMOD    1            
         VFB    0            
        LETA    0            
        WETA    0            
          U0    0            
        TEMP    0            
         VDD    0            
       XPART    0            


**** 03/18/14 00:29:53 ************** PSpice Lite (Mar 2000) *****************

 Voltage Controlled Oscillator


 ****     Digital Input MODEL PARAMETERS


******************************************************************************




               din555          
        FILE DSO_DTOA        
      FORMAT    6            
    TIMESTEP  100.000000E-12 
      S0NAME 0               
       S0TSW  700.000000E-12 
       S0RLO  100            
       S0RHI    1.000000E+06 
      S1NAME 1               
       S1TSW  700.000000E-12 
       S1RLO    1.000000E+06 
       S1RHI  300            
      S2NAME x               
       S2TSW  700.000000E-12 
       S2RLO  200            
       S2RHI  200            
      S3NAME r               
       S3TSW  700.000000E-12 
       S3RLO  200            
       S3RHI  200            
      S4NAME f               
       S4TSW  700.000000E-12 
       S4RLO  200            
       S4RHI  200            
      S5NAME z               
       S5TSW  700.000000E-12 
       S5RLO  200.000000E+03 
       S5RHI  200.000000E+03 


**** 03/18/14 00:29:53 ************** PSpice Lite (Mar 2000) *****************

 Voltage Controlled Oscillator


 ****     Digital Output MODEL PARAMETERS


******************************************************************************




               Xa.cmp          do555           
        FILE DSO_ATOD        DSO_ATOD        
      FORMAT    6               6            
     CHGONLY    1               1            
    TIMESTEP  100.000000E-12  100.000000E-12 
      S0NAME 0               X               
       S0VHI                    2            
       S0VLO -500                .8          
      S1NAME 1               0               
       S1VHI  500                .8          
       S1VLO                   -1.5          
      S2NAME                 R               
       S2VHI                    1.4          
       S2VLO                     .8          
      S3NAME                 R               
       S3VHI                    2            
       S3VLO                    1.3          
      S4NAME                 X               
       S4VHI                    2            
       S4VLO                     .8          
      S5NAME                 1               
       S5VHI                   50            
       S5VLO                    2            
      S6NAME                 F               
       S6VHI                    2            
       S6VLO                    1.3          
      S7NAME                 F               
       S7VHI                    1.4          
       S7VLO                     .8          


**** 03/18/14 00:29:53 ************** PSpice Lite (Mar 2000) *****************

 Voltage Controlled Oscillator


 ****     Digital Gated FF MODEL PARAMETERS


******************************************************************************




               Xa.t_srff       
    TPDQLHMN    0            
    TPDQLHTY    0            
    TPDQLHMX    0            
    TPDQHLMN    0            
    TPDQHLTY    0            
    TPDQHLMX    0            
    TPGQLHMN    0            
    TPGQLHTY    0            
    TPGQLHMX    0            
    TPGQHLMN    0            
    TPGQHLTY    0            
    TPGQHLMX    0            
   TPPCQLHMN   48.000000E-09 
   TPPCQLHTY  120.000000E-09 
   TPPCQLHMX  192.000000E-09 
   TPPCQHLMN    0            
   TPPCQHLTY    0            
   TPPCQHLMX    0            
      TWGHMN    0            
      TWGHTY    0            
      TWGHMX    0            
     TWPCLMN    0            
     TWPCLTY    0            
     TWPCLMX    0            
     TSUDGMN    0            
     TSUDGTY    0            
     TSUDGMX    0            
   TSUPCGHMN    0            
   TSUPCGHTY    0            
   TSUPCGHMX    0            
      THDGMN    0            
      THDGTY    0            
      THDGMX    0            


**** 03/18/14 00:29:53 ************** PSpice Lite (Mar 2000) *****************

 Voltage Controlled Oscillator


 ****     Digital Delay Line MODEL PARAMETERS


******************************************************************************




               Xa.dlymod       
       DLYMN  166.666700E-09 
       DLYTY  166.666700E-09 
       DLYMX  166.666700E-09 


**** 03/18/14 00:29:53 ************** PSpice Lite (Mar 2000) *****************

 Voltage Controlled Oscillator


 ****     Digital IO  MODEL PARAMETERS


******************************************************************************




               Xa.io_555       io_std          io_stm          
        DRVL  104             104               0            
        DRVH   96.4            96.4             0            
       AtoD1 atod_555        AtoD_STD                        
       AtoD2 atod_555        AtoD_STD_NX                     
       AtoD3 atod_555        AtoD_STD                        
       AtoD4 atod_555        AtoD_STD_NX                     
       DtoA1 dtoa_555        DtoA_STD        DtoA_STM        
       DtoA2 dtoa_555        DtoA_STD        DtoA_STM        
       DtoA3 dtoa_555        DtoA_STD        DtoA_STM        
       DtoA4 dtoa_555        DtoA_STD        DtoA_STM        
      TSWHL1                    1.373000E-09                 
      TSWHL2                    1.346000E-09                 
      TSWHL3                    1.511000E-09                 
      TSWHL4                    1.487000E-09                 
      TSWLH1                    3.382000E-09                 
      TSWLH2                    3.424000E-09                 
      TSWLH3                    3.517000E-09                 
      TSWLH4                    3.564000E-09                 
       TPWRT  100.000000E+03  100.000000E+03  100.000000E+03 


**** 03/18/14 00:29:53 ************** PSpice Lite (Mar 2000) *****************

 Voltage Controlled Oscillator


 ****     INITIAL TRANSIENT SOLUTION       TEMPERATURE =   27.000 DEG C

 ****     CURRENT STEP                     PARAM VCC =    5     


******************************************************************************



 NODE   VOLTAGE     NODE   VOLTAGE     NODE   VOLTAGE     NODE   VOLTAGE


(    3)    4.8530  (    5)    5.0000  (    6)    4.9999  (    7)    4.9999      

(    8)    5.0000  (Xa.qb) 500.0E-06  ($G_DGND)    0.0000                       

($G_DPWR)    5.0000                   (Xa.botm)    2.5000                   



 DGTL NODE : STATE  DGTL NODE : STATE  DGTL NODE : STATE  DGTL NODE : STATE


(   Xa.rd) : 0     (   Xa.hi) : 1     (Xa.qb$DtoA) : 0   ( Xa.strt) : 0         

(  8$AtoD) : 1     (    Xa.r) : 0     (  3$DtoA) : 1     (    Xa.s) : 0         

(   Xa.sd) : 0     




    VOLTAGE SOURCE CURRENTS
    NAME         CURRENT

    Vc          -4.951E-04
    Vcc1        -1.923E-04
    X$DIGIFPWR.VDPWR  -5.000E-06
    X$DIGIFPWR.VDGND  -5.000E-06

    TOTAL POWER DISSIPATION   3.46E-03  WATTS



          JOB CONCLUDED

          TOTAL JOB TIME             .03
