
**** 06/18/15 21:27:26 ************** PSpice Lite (Mar 2000) *****************

 Band Pass Filter


 ****     CIRCUIT DESCRIPTION


******************************************************************************



.LIB EVAL.LIB
Xa 3 2 7 4 6 UA741
Vp 7 0 15
Vn 0 4 15
Ra 1 5 1K
Ca 5 0 0.5U
Cb 5 3 0.5U
Rb 3 0 2K
Rc 5 6 1K
R1 2 0 1K
R2 6 2 1K
Vin 1 0 AC 100M
.AC DEC 20 10 10K
.PROBE
.END

**** 06/18/15 21:27:26 ************** PSpice Lite (Mar 2000) *****************

 Band Pass Filter


 ****     Diode MODEL PARAMETERS


******************************************************************************




               Xa.dx           
          IS  800.000000E-18 
          RS    1            


**** 06/18/15 21:27:26 ************** PSpice Lite (Mar 2000) *****************

 Band Pass Filter


 ****     BJT MODEL PARAMETERS


******************************************************************************




               Xa.qx           
               NPN             
          IS  800.000000E-18 
          BF   93.75         
          NF    1            
          BR    1            
          NR    1            
          CN    2.42         
           D     .87         


**** 06/18/15 21:27:26 ************** PSpice Lite (Mar 2000) *****************

 Band Pass Filter


 ****     SMALL SIGNAL BIAS SOLUTION       TEMPERATURE =   27.000 DEG C


******************************************************************************



 NODE   VOLTAGE     NODE   VOLTAGE     NODE   VOLTAGE     NODE   VOLTAGE


(    1)    0.0000  (    2)-140.2E-06  (    3)-159.4E-06  (    4)  -15.0000      

(    5)-100.3E-06  (    6)-200.6E-06  (    7)   15.0000  ( Xa.6) 20.88E-09      

( Xa.7)-208.7E-06  ( Xa.8)-208.7E-06  ( Xa.9)    0.0000  (Xa.10)    -.6078      

(Xa.11)   14.9600  (Xa.12)   14.9600  (Xa.13)    -.5939  (Xa.14)    -.5940      

(Xa.53)   14.0000  (Xa.54)  -14.0000  (Xa.90)-160.7E-06  (Xa.91)   40.0000      

(Xa.92)  -40.0000  (Xa.99)    0.0000  




    VOLTAGE SOURCE CURRENTS
    NAME         CURRENT

    Vp          -1.667E-03
    Vn          -1.667E-03
    Vin         -1.003E-07
    Xa.vb        2.088E-13
    Xa.vc        1.400E-11
    Xa.ve        1.400E-11
    Xa.vlim     -1.607E-07
    Xa.vlp      -4.000E-11
    Xa.vln      -4.000E-11

    TOTAL POWER DISSIPATION   5.00E-02  WATTS



          JOB CONCLUDED

          TOTAL JOB TIME             .02
